
**** 06/24/22 09:38:23 ****** PSpice 17.2.0 (March 2016) ****** ID# 0 ********

 ** Profile: "SCHEMATIC1-1"  [ D:\pspice 10609 junja\invergator-PSpiceFiles\SCHEMATIC1\1.sim ] 


 ****     CIRCUIT DESCRIPTION


******************************************************************************




** Creating circuit file "1.cir" 
** WARNING: THIS AUTOMATICALLY GENERATED FILE MAY BE OVERWRITTEN BY SUBSEQUENT SIMULATIONS

*Libraries: 
* Profile Libraries :
* Local Libraries :
* From [PSPICE NETLIST] section of C:\SPB_Data\cdssetup\OrCAD_PSpice\17.2.0\PSpice.ini file:
.lib "nom.lib" 

*Analysis directives: 
.TRAN  0 2ms 0 
.OPTIONS ADVCONV
.PROBE64 V(alias(*)) I(alias(*)) W(alias(*)) D(alias(*)) NOISE(alias(*)) 
.INC "..\SCHEMATIC1.net" 



**** INCLUDING SCHEMATIC1.net ****
* source INVERGATOR
X_U1         0 N00270 N00217 N00221 N00330 uA741
R_R1         N00446 N00270  900 TC=0,0 
V_V1         0 N00221 15V
V_V2         N00217 0 15V
C_C1         N00270 N00330  0.2uF IC=-15V TC=0,0 
V_V3         N00446 0  
+PULSE -5V 5V 1ns 1ns 1ns 1m 2m

**** RESUMING 1.cir ****
.END

**** 06/24/22 09:38:23 ****** PSpice 17.2.0 (March 2016) ****** ID# 0 ********

 ** Profile: "SCHEMATIC1-1"  [ D:\pspice 10609 junja\invergator-PSpiceFiles\SCHEMATIC1\1.sim ] 


 ****     Diode MODEL PARAMETERS


******************************************************************************




               X_U1.dx         X_U1.dy         
          IS  800.000000E-18  800.000000E-18 
          RS    1               1.000000E-03 
         CJO                   10.000000E-12 


**** 06/24/22 09:38:23 ****** PSpice 17.2.0 (March 2016) ****** ID# 0 ********

 ** Profile: "SCHEMATIC1-1"  [ D:\pspice 10609 junja\invergator-PSpiceFiles\SCHEMATIC1\1.sim ] 


 ****     BJT MODEL PARAMETERS


******************************************************************************




               X_U1.qx         
               NPN             
       LEVEL    1            
          IS  800.000000E-18 
          BF   93.75         
          NF    1            
          BR    1            
          NR    1            
         ISS    0            
          RE    0            
          RC    0            
         CJE    0            
         VJE     .75         
         CJC    0            
         VJC     .75         
         MJC     .33         
        XCJC    1            
         CJS    0            
         VJS     .75         
          KF    0            
          AF    1            
          CN    2.42         
           D     .87         


**** 06/24/22 09:38:23 ****** PSpice 17.2.0 (March 2016) ****** ID# 0 ********

 ** Profile: "SCHEMATIC1-1"  [ D:\pspice 10609 junja\invergator-PSpiceFiles\SCHEMATIC1\1.sim ] 


 ****     INITIAL TRANSIENT SOLUTION       TEMPERATURE =   27.000 DEG C


******************************************************************************



 NODE   VOLTAGE     NODE   VOLTAGE     NODE   VOLTAGE     NODE   VOLTAGE


(N00217)   15.0000 (N00221)  -15.0000 (N00270)    -.1874 (N00330)   14.8130     

(N00446)   -5.0000 (X_U1.6)   -1.4894 (X_U1.7)   16.8430 (X_U1.8)   16.8430     

(X_U1.9)    0.0000 (X_U1.10)    -.6394                   (X_U1.11)   15.0000    

(X_U1.12)   14.9210                   (X_U1.13)    -.6393                       

(X_U1.14)    -.6117                   (X_U1.53)   14.0000                       

(X_U1.54)  -14.0000                   (X_U1.90)   40.6070                       

(X_U1.91)   40.0000                   (X_U1.92)  -40.0000                       

(X_U1.99)    0.0000                   




    VOLTAGE SOURCE CURRENTS
    NAME         CURRENT

    V_V1        -1.667E-03
    V_V2         3.359E-02
    V_V3         5.347E-03
    X_U1.vb     -1.489E-05
    X_U1.vc     -3.526E-02
    X_U1.ve      3.073E-11
    X_U1.vlim    4.061E-02
    X_U1.vlp     1.226E-05
    X_U1.vln    -8.061E-11

    TOTAL POWER DISSIPATION  -4.17E-01  WATTS



          JOB CONCLUDED

**** 06/24/22 09:38:23 ****** PSpice 17.2.0 (March 2016) ****** ID# 0 ********

 ** Profile: "SCHEMATIC1-1"  [ D:\pspice 10609 junja\invergator-PSpiceFiles\SCHEMATIC1\1.sim ] 


 ****     JOB STATISTICS SUMMARY


******************************************************************************



  Total job time (using Solver 1)   =         .05
