
**** 11/22/22 17:31:44 ****** PSpice 17.2.0 (March 2016) ****** ID# 0 ********

 ** Profile: "SCHEMATIC1-nonmultibabraiter"  [ D:\Or CAD\2022 pspice dinon\1122-1-PSpiceFiles\SCHEMATIC1\nonmultibabraiter.sim ] 


 ****     CIRCUIT DESCRIPTION


******************************************************************************




** Creating circuit file "nonmultibabraiter.cir" 
** WARNING: THIS AUTOMATICALLY GENERATED FILE MAY BE OVERWRITTEN BY SUBSEQUENT SIMULATIONS

*Libraries: 
* Profile Libraries :
* Local Libraries :
* From [PSPICE NETLIST] section of C:\SPB_Data\cdssetup\OrCAD_PSpice\17.2.0\PSpice.ini file:
.lib "nom.lib" 

*Analysis directives: 
.TRAN  0 3ms 0 
.OPTIONS ADVCONV
.PROBE64 V(alias(*)) I(alias(*)) W(alias(*)) D(alias(*)) NOISE(alias(*)) 
.INC "..\SCHEMATIC1.net" 



**** INCLUDING SCHEMATIC1.net ****
* source 1122-1
R_R1         N00241 N00203  6.8k TC=0,0 
R_R2         N00248 N00203  100k TC=0,0 
R_R3         N00255 N00203  100k TC=0,0 
R_R4         N00262 N00203  6.8k TC=0,0 
C_C1         N00241 N00248  0.01uF IC=5V TC=0,0 
C_C2         N00255 N00262  0.01uF IC=5V TC=0,0 
Q_Q1         N00241 N00255 0 Q2N3904
Q_Q2         N00262 N00248 0 Q2N3904
V_V1         N00203 0 5V

**** RESUMING nonmultibabraiter.cir ****
.END

**** 11/22/22 17:31:44 ****** PSpice 17.2.0 (March 2016) ****** ID# 0 ********

 ** Profile: "SCHEMATIC1-nonmultibabraiter"  [ D:\Or CAD\2022 pspice dinon\1122-1-PSpiceFiles\SCHEMATIC1\nonmultibabraiter.sim ] 


 ****     BJT MODEL PARAMETERS


******************************************************************************




               Q2N3904         
               NPN             
       LEVEL    1            
          IS    6.734000E-15 
          BF  416.4          
          NF    1            
         VAF   74.03         
         IKF     .06678      
         ISE    6.734000E-15 
          NE    1.259        
          BR     .7371       
          NR    1            
         ISS    0            
          RB   10            
          RE    0            
          RC    1            
         CJE    4.493000E-12 
         VJE     .75         
         MJE     .2593       
         CJC    3.638000E-12 
         VJC     .75         
         MJC     .3085       
        XCJC    1            
         CJS    0            
         VJS     .75         
          TF  301.200000E-12 
         XTF    2            
         VTF    4            
         ITF     .4          
          TR  239.500000E-09 
         XTB    1.5          
          KF    0            
          AF    1            
          CN    2.42         
           D     .87         


**** 11/22/22 17:31:44 ****** PSpice 17.2.0 (March 2016) ****** ID# 0 ********

 ** Profile: "SCHEMATIC1-nonmultibabraiter"  [ D:\Or CAD\2022 pspice dinon\1122-1-PSpiceFiles\SCHEMATIC1\nonmultibabraiter.sim ] 


 ****     INITIAL TRANSIENT SOLUTION       TEMPERATURE =   27.000 DEG C


******************************************************************************



 NODE   VOLTAGE     NODE   VOLTAGE     NODE   VOLTAGE     NODE   VOLTAGE


(N00203)    5.0000 (N00241)     .0317 (N00248)   -4.9683 (N00255)     .7108     

(N00262)   -4.2892 




    VOLTAGE SOURCE CURRENTS
    NAME         CURRENT

    V_V1        -2.239E-03

    TOTAL POWER DISSIPATION   1.12E-02  WATTS



          JOB CONCLUDED

**** 11/22/22 17:31:44 ****** PSpice 17.2.0 (March 2016) ****** ID# 0 ********

 ** Profile: "SCHEMATIC1-nonmultibabraiter"  [ D:\Or CAD\2022 pspice dinon\1122-1-PSpiceFiles\SCHEMATIC1\nonmultibabraiter.sim ] 


 ****     JOB STATISTICS SUMMARY


******************************************************************************



  License check-out time            =        1.19
  Total job time (using Solver 1)   =         .19
