
**** 12/01/23 11:31:14 ****** PSpice 17.2.0 (March 2016) ****** ID# 0 ********

 ** Profile: "SCHEMATIC1-1"  [ D:\ORCAD\B07_1201\B07_1201_1-PSpiceFiles\SCHEMATIC1\1.sim ] 


 ****     CIRCUIT DESCRIPTION


******************************************************************************




** Creating circuit file "1.cir" 
** WARNING: THIS AUTOMATICALLY GENERATED FILE MAY BE OVERWRITTEN BY SUBSEQUENT SIMULATIONS

*Libraries: 
* Profile Libraries :
* Local Libraries :
* From [PSPICE NETLIST] section of C:\SPB_Data\cdssetup\OrCAD_PSpice\17.2.0\PSpice.ini file:
.lib "nom.lib" 

*Analysis directives: 
.TRAN  0 4ms 0 
.OPTIONS ADVCONV
.PROBE64 V(alias(*)) I(alias(*)) W(alias(*)) D(alias(*)) NOISE(alias(*)) 
.INC "..\SCHEMATIC1.net" 



**** INCLUDING SCHEMATIC1.net ****
* source B07_1201_1
V_V1         N00285 0 5Vdc
R_R1         NET1 N00285  6.8k TC=0,0 
R_R2         N00465 N00285  100k TC=0,0 
R_R3         N00474 N00285  100k TC=0,0 
R_R4         NET2 N00285  6.8k TC=0,0 
C_C1         NET1 N00465  0.01uF IC=5V TC=0,0 
C_C2         N00474 NET2  0.01uF IC=5V TC=0,0 
Q_Q1         NET1 N00474 0 Q2N3904
Q_Q2         NET2 N00465 0 Q2N3904

**** RESUMING 1.cir ****
.END

**** 12/01/23 11:31:14 ****** PSpice 17.2.0 (March 2016) ****** ID# 0 ********

 ** Profile: "SCHEMATIC1-1"  [ D:\ORCAD\B07_1201\B07_1201_1-PSpiceFiles\SCHEMATIC1\1.sim ] 


 ****     BJT MODEL PARAMETERS


******************************************************************************




               Q2N3904         
               NPN             
       LEVEL    1            
          IS    6.734000E-15 
          BF  416.4          
          NF    1            
         VAF   74.03         
         IKF     .06678      
         ISE    6.734000E-15 
          NE    1.259        
          BR     .7371       
          NR    1            
         ISS    0            
          RB   10            
          RE    0            
          RC    1            
         CJE    4.493000E-12 
         VJE     .75         
         MJE     .2593       
         CJC    3.638000E-12 
         VJC     .75         
         MJC     .3085       
        XCJC    1            
         CJS    0            
         VJS     .75         
          TF  301.200000E-12 
         XTF    2            
         VTF    4            
         ITF     .4          
          TR  239.500000E-09 
         XTB    1.5          
          KF    0            
          AF    1            
          CN    2.42         
           D     .87         


**** 12/01/23 11:31:14 ****** PSpice 17.2.0 (March 2016) ****** ID# 0 ********

 ** Profile: "SCHEMATIC1-1"  [ D:\ORCAD\B07_1201\B07_1201_1-PSpiceFiles\SCHEMATIC1\1.sim ] 


 ****     INITIAL TRANSIENT SOLUTION       TEMPERATURE =   27.000 DEG C


******************************************************************************



 NODE   VOLTAGE     NODE   VOLTAGE     NODE   VOLTAGE     NODE   VOLTAGE


( NET1)     .0317  ( NET2)   -4.2892  (N00285)    5.0000 (N00465)   -4.9683     

(N00474)     .7108 




    VOLTAGE SOURCE CURRENTS
    NAME         CURRENT

    V_V1        -2.239E-03

    TOTAL POWER DISSIPATION   1.12E-02  WATTS



          JOB CONCLUDED

**** 12/01/23 11:31:14 ****** PSpice 17.2.0 (March 2016) ****** ID# 0 ********

 ** Profile: "SCHEMATIC1-1"  [ D:\ORCAD\B07_1201\B07_1201_1-PSpiceFiles\SCHEMATIC1\1.sim ] 


 ****     JOB STATISTICS SUMMARY


******************************************************************************



  License check-out time            =        1.58
  Total job time (using Solver 1)   =         .17
