
**** 05/24/22 17:19:43 ****** PSpice 17.2.0 (March 2016) ****** ID# 0 ********

 ** Profile: "SCHEMATIC1-1"  [ D:\2022 pspice dinon\5 24 inverty-PSpiceFiles\SCHEMATIC1\1.sim ] 


 ****     CIRCUIT DESCRIPTION


******************************************************************************




** Creating circuit file "1.cir" 
** WARNING: THIS AUTOMATICALLY GENERATED FILE MAY BE OVERWRITTEN BY SUBSEQUENT SIMULATIONS

*Libraries: 
* Profile Libraries :
* Local Libraries :
* From [PSPICE NETLIST] section of C:\SPB_Data\cdssetup\OrCAD_PSpice\17.2.0\PSpice.ini file:
.lib "nom.lib" 

*Analysis directives: 
.TRAN  0 3ms 0 
.OPTIONS ADVCONV
.PROBE64 V(alias(*)) I(alias(*)) W(alias(*)) D(alias(*)) NOISE(alias(*)) 
.INC "..\SCHEMATIC1.net" 



**** INCLUDING SCHEMATIC1.net ****
* source 5 24 INVERTY
V_V1         N00219 0  AC 1
+SIN 0 1V 1kHz 0 0 0
R_R1         N00219 N00215  1k TC=0,0 
X_U1         0 N00215 VCC VEE N00238 OPA134/BB
R_R2         N00215 N00238  3k TC=0,0 
V_V2         VCC 0 15V
V_V3         VEE 0 -15V

**** RESUMING 1.cir ****
.END

**** 05/24/22 17:19:43 ****** PSpice 17.2.0 (March 2016) ****** ID# 0 ********

 ** Profile: "SCHEMATIC1-1"  [ D:\2022 pspice dinon\5 24 inverty-PSpiceFiles\SCHEMATIC1\1.sim ] 


 ****     Diode MODEL PARAMETERS


******************************************************************************




               X_U1.DX         
          IS  800.000000E-18 


**** 05/24/22 17:19:43 ****** PSpice 17.2.0 (March 2016) ****** ID# 0 ********

 ** Profile: "SCHEMATIC1-1"  [ D:\2022 pspice dinon\5 24 inverty-PSpiceFiles\SCHEMATIC1\1.sim ] 


 ****     Junction FET MODEL PARAMETERS


******************************************************************************




               X_U1.JX         
               PJF             
         VTO   -1            
        BETA    1.010000E-03 
          IS    2.500000E-15 


**** 05/24/22 17:19:43 ****** PSpice 17.2.0 (March 2016) ****** ID# 0 ********

 ** Profile: "SCHEMATIC1-1"  [ D:\2022 pspice dinon\5 24 inverty-PSpiceFiles\SCHEMATIC1\1.sim ] 


 ****     INITIAL TRANSIENT SOLUTION       TEMPERATURE =   27.000 DEG C


******************************************************************************



 NODE   VOLTAGE     NODE   VOLTAGE     NODE   VOLTAGE     NODE   VOLTAGE


(  VCC)   15.0000  (  VEE)  -15.0000  (N00215) 5.063E-06 (N00219)    0.0000     

(N00238) 20.30E-06 (X_U1.6)-30.66E-09 (X_U1.7) 20.40E-06 (X_U1.8) 20.40E-06     

(X_U1.9)    0.0000 (X_U1.10)    -.7181                   (X_U1.11)  -14.8000    

(X_U1.12)  -14.8000                   (X_U1.53)   13.8000                       

(X_U1.54)  -14.1000                   (X_U1.90) 5.079E-06                       

(X_U1.91)   40.0000                   (X_U1.92)  -40.0000                       

(X_U1.99)    0.0000                   




    VOLTAGE SOURCE CURRENTS
    NAME         CURRENT

    V_V1         5.063E-09
    V_V2        -4.160E-03
    V_V3         4.161E-03
    X_U1.VB     -3.066E-13
    X_U1.VC      1.380E-11
    X_U1.VE      1.410E-11
    X_U1.VLIM    5.079E-09
    X_U1.VLP    -4.000E-11
    X_U1.VLN    -4.000E-11

    TOTAL POWER DISSIPATION   1.25E-01  WATTS



          JOB CONCLUDED

**** 05/24/22 17:19:43 ****** PSpice 17.2.0 (March 2016) ****** ID# 0 ********

 ** Profile: "SCHEMATIC1-1"  [ D:\2022 pspice dinon\5 24 inverty-PSpiceFiles\SCHEMATIC1\1.sim ] 


 ****     JOB STATISTICS SUMMARY


******************************************************************************



  Total job time (using Solver 1)   =         .03
