
**** 06/02/22 16:47:12 ****** PSpice 17.2.0 (March 2016) ****** ID# 0 ********

 ** Profile: "SCHEMATIC1-2"  [ D:\pspice 10609 junja\Nonninverting Amplfier-PSpiceFiles\SCHEMATIC1\2.sim ] 


 ****     CIRCUIT DESCRIPTION


******************************************************************************




** Creating circuit file "2.cir" 
** WARNING: THIS AUTOMATICALLY GENERATED FILE MAY BE OVERWRITTEN BY SUBSEQUENT SIMULATIONS

*Libraries: 
* Profile Libraries :
* Local Libraries :
* From [PSPICE NETLIST] section of C:\SPB_Data\cdssetup\OrCAD_PSpice\17.2.0\PSpice.ini file:
.lib "nom.lib" 

*Analysis directives: 
.TRAN  0 2ms 0 
.OPTIONS ADVCONV
.PROBE64 V(alias(*)) I(alias(*)) W(alias(*)) D(alias(*)) NOISE(alias(*)) 
.INC "..\SCHEMATIC1.net" 



**** INCLUDING SCHEMATIC1.net ****
* source NONNINVERTING AMPLFIER
.EXTERNAL OUTPUT VEE
.EXTERNAL INPUT VCC
X_U1         N00313 N00206 VCC VEE N00193 uA741
R_R1         0 N00206  1k TC=0,0 
R_R2         N00206 N00193  5k TC=0,0 
R_R3         0 N00193  1k TC=0,0 
V_V1         N00313 0  AC 1
+SIN 0 2Vp 1KHz 0 0 0
V_V2         VCC 0 18V
V_V3         0 VEE 18V

**** RESUMING 2.cir ****
.END

**** 06/02/22 16:47:12 ****** PSpice 17.2.0 (March 2016) ****** ID# 0 ********

 ** Profile: "SCHEMATIC1-2"  [ D:\pspice 10609 junja\Nonninverting Amplfier-PSpiceFiles\SCHEMATIC1\2.sim ] 


 ****     Diode MODEL PARAMETERS


******************************************************************************




               X_U1.dx         X_U1.dy         
          IS  800.000000E-18  800.000000E-18 
          RS    1               1.000000E-03 
         CJO                   10.000000E-12 


**** 06/02/22 16:47:12 ****** PSpice 17.2.0 (March 2016) ****** ID# 0 ********

 ** Profile: "SCHEMATIC1-2"  [ D:\pspice 10609 junja\Nonninverting Amplfier-PSpiceFiles\SCHEMATIC1\2.sim ] 


 ****     BJT MODEL PARAMETERS


******************************************************************************




               X_U1.qx         
               NPN             
       LEVEL    1            
          IS  800.000000E-18 
          BF   93.75         
          NF    1            
          BR    1            
          NR    1            
         ISS    0            
          RE    0            
          RC    0            
         CJE    0            
         VJE     .75         
         CJC    0            
         VJC     .75         
         MJC     .33         
        XCJC    1            
         CJS    0            
         VJS     .75         
          KF    0            
          AF    1            
          CN    2.42         
           D     .87         


**** 06/02/22 16:47:12 ****** PSpice 17.2.0 (March 2016) ****** ID# 0 ********

 ** Profile: "SCHEMATIC1-2"  [ D:\pspice 10609 junja\Nonninverting Amplfier-PSpiceFiles\SCHEMATIC1\2.sim ] 


 ****     INITIAL TRANSIENT SOLUTION       TEMPERATURE =   27.000 DEG C


******************************************************************************



 NODE   VOLTAGE     NODE   VOLTAGE     NODE   VOLTAGE     NODE   VOLTAGE


(  VCC)   18.0000  (  VEE)  -18.0000  (N00193) 514.3E-06 (N00206) 19.25E-06     

(N00313)    0.0000 (X_U1.6)-57.61E-09 (X_U1.7) 544.9E-06 (X_U1.8) 544.9E-06     

(X_U1.9)    0.0000 (X_U1.10)    -.6077                   (X_U1.11)   17.9600    

(X_U1.12)   17.9600                   (X_U1.13)    -.5938                       

(X_U1.14)    -.5938                   (X_U1.53)   17.0000                       

(X_U1.54)  -17.0000                   (X_U1.90) 613.3E-06                       

(X_U1.91)   40.0000                   (X_U1.92)  -40.0000                       

(X_U1.99)    0.0000                   




    VOLTAGE SOURCE CURRENTS
    NAME         CURRENT

    V_V1        -7.972E-08
    V_V2        -1.997E-03
    V_V3        -1.998E-03
    X_U1.vb     -5.761E-13
    X_U1.vc      1.700E-11
    X_U1.ve      1.933E-11
    X_U1.vlim    6.133E-07
    X_U1.vlp    -4.000E-11
    X_U1.vln    -4.001E-11

    TOTAL POWER DISSIPATION   7.19E-02  WATTS



          JOB CONCLUDED

**** 06/02/22 16:47:12 ****** PSpice 17.2.0 (March 2016) ****** ID# 0 ********

 ** Profile: "SCHEMATIC1-2"  [ D:\pspice 10609 junja\Nonninverting Amplfier-PSpiceFiles\SCHEMATIC1\2.sim ] 


 ****     JOB STATISTICS SUMMARY


******************************************************************************



  License check-out time            =        1.77
  Total job time (using Solver 1)   =         .03
