
**** 05/25/22 19:54:17 ****** PSpice 17.2.0 (March 2016) ****** ID# 0 ********

 ** Profile: "SCHEMATIC1-4"  [ d:\2022 pspice dinon\5 24 inverty 2-PSpiceFiles\SCHEMATIC1\4.sim ] 


 ****     CIRCUIT DESCRIPTION


******************************************************************************




** Creating circuit file "4.cir" 
** WARNING: THIS AUTOMATICALLY GENERATED FILE MAY BE OVERWRITTEN BY SUBSEQUENT SIMULATIONS

*Libraries: 
* Profile Libraries :
* Local Libraries :
* From [PSPICE NETLIST] section of C:\SPB_Data\cdssetup\OrCAD_PSpice\17.2.0\PSpice.ini file:
.lib "nom.lib" 

*Analysis directives: 
.TRAN  0 8s 0 
.OPTIONS ADVCONV
.PROBE64 V(alias(*)) I(alias(*)) W(alias(*)) D(alias(*)) NOISE(alias(*)) 
.INC "..\SCHEMATIC1.net" 



**** INCLUDING SCHEMATIC1.net ****
* source 5 24 INVERTY 2
V_V4         N01215 0  AC 1
+SIN 0 1V 1khz 0 0 0
X_U4         N01215 N01197 VCC VEE N01246 OPA134/BB
R_R3         N01197 N01246  3k TC=0,0 
R_R4         N01197 0  1k TC=0,0 
V_V6         VEE 0 -15V
V_V7         VCC 0 15V

**** RESUMING 4.cir ****
.END

**** 05/25/22 19:54:17 ****** PSpice 17.2.0 (March 2016) ****** ID# 0 ********

 ** Profile: "SCHEMATIC1-4"  [ d:\2022 pspice dinon\5 24 inverty 2-PSpiceFiles\SCHEMATIC1\4.sim ] 


 ****     Diode MODEL PARAMETERS


******************************************************************************




               X_U4.DX         
          IS  800.000000E-18 


**** 05/25/22 19:54:17 ****** PSpice 17.2.0 (March 2016) ****** ID# 0 ********

 ** Profile: "SCHEMATIC1-4"  [ d:\2022 pspice dinon\5 24 inverty 2-PSpiceFiles\SCHEMATIC1\4.sim ] 


 ****     Junction FET MODEL PARAMETERS


******************************************************************************




               X_U4.JX         
               PJF             
         VTO   -1            
        BETA    1.010000E-03 
          IS    2.500000E-15 


**** 05/25/22 19:54:17 ****** PSpice 17.2.0 (March 2016) ****** ID# 0 ********

 ** Profile: "SCHEMATIC1-4"  [ d:\2022 pspice dinon\5 24 inverty 2-PSpiceFiles\SCHEMATIC1\4.sim ] 


 ****     INITIAL TRANSIENT SOLUTION       TEMPERATURE =   27.000 DEG C


******************************************************************************



 NODE   VOLTAGE     NODE   VOLTAGE     NODE   VOLTAGE     NODE   VOLTAGE


(  VCC)   15.0000  (  VEE)  -15.0000  (N01197) 5.063E-06 (N01215)    0.0000     

(N01246) 20.30E-06 (X_U4.6)-30.66E-09 (X_U4.7) 20.40E-06 (X_U4.8) 20.40E-06     

(X_U4.9)    0.0000 (X_U4.10)    -.7181                   (X_U4.11)  -14.8000    

(X_U4.12)  -14.8000                   (X_U4.53)   13.8000                       

(X_U4.54)  -14.1000                   (X_U4.90) 5.079E-06                       

(X_U4.91)   40.0000                   (X_U4.92)  -40.0000                       

(X_U4.99)    0.0000                   




    VOLTAGE SOURCE CURRENTS
    NAME         CURRENT

    V_V4        -1.552E-11
    V_V6         4.161E-03
    V_V7        -4.160E-03
    X_U4.VB     -3.066E-13
    X_U4.VC      1.380E-11
    X_U4.VE      1.410E-11
    X_U4.VLIM    5.079E-09
    X_U4.VLP    -4.000E-11
    X_U4.VLN    -4.000E-11

    TOTAL POWER DISSIPATION   1.25E-01  WATTS



          JOB CONCLUDED

**** 05/25/22 19:54:17 ****** PSpice 17.2.0 (March 2016) ****** ID# 0 ********

 ** Profile: "SCHEMATIC1-4"  [ d:\2022 pspice dinon\5 24 inverty 2-PSpiceFiles\SCHEMATIC1\4.sim ] 


 ****     JOB STATISTICS SUMMARY


******************************************************************************



  License check-out time            =        2.42
  Total job time (using Solver 1)   =        2.17
