
**** 04/15/22 11:24:06 ****** PSpice 17.2.0 (March 2016) ****** ID# 0 ********

 ** Profile: "SCHEMATIC1-1"  [ D:\pspice 10609\vdc r d q-PSpiceFiles\SCHEMATIC1\1.sim ] 


 ****     CIRCUIT DESCRIPTION


******************************************************************************




** Creating circuit file "1.cir" 
** WARNING: THIS AUTOMATICALLY GENERATED FILE MAY BE OVERWRITTEN BY SUBSEQUENT SIMULATIONS

*Libraries: 
* Profile Libraries :
* Local Libraries :
* From [PSPICE NETLIST] section of C:\SPB_Data\cdssetup\OrCAD_PSpice\17.2.0\PSpice.ini file:
.lib "nom.lib" 

*Analysis directives: 
.TRAN  0 1000ns 0 
.OPTIONS ADVCONV
.PROBE64 V(alias(*)) I(alias(*)) W(alias(*)) D(alias(*)) NOISE(alias(*)) 
.INC "..\SCHEMATIC1.net" 



**** INCLUDING SCHEMATIC1.net ****
* source VDC R D Q
V_V1         N00137 0 15V
D_D3         N00137 N00144 D1N4001 
R_R2         N00182 N00144  1k TC=0,0 
R_R3         0 N00186  1k TC=0,0 
Q_Q1         N00144 N00182 N00186 Q2SC1815
D_D4         0 N00182 D1N756 

**** RESUMING 1.cir ****
.END

**** 04/15/22 11:24:06 ****** PSpice 17.2.0 (March 2016) ****** ID# 0 ********

 ** Profile: "SCHEMATIC1-1"  [ D:\pspice 10609\vdc r d q-PSpiceFiles\SCHEMATIC1\1.sim ] 


 ****     Diode MODEL PARAMETERS


******************************************************************************




               D1N4001         D1N756          
          IS   14.110000E-09    2.453000E-15 
           N    1.984                        
         ISR                    1.803000E-09 
         IKF   94.81                         
          BV   75               8.2          
         IBV   10.000000E-06    1.5593       
         NBV                     .51406      
        IBVL                   83.521000E-06 
        NBVL                     .1313       
          RS     .03389         2.9          
          TT    5.700000E-06                 
         CJO   25.890000E-12   90.000000E-12 
          VJ     .3245           .75         
           M     .44             .448        
        TBV1                  585.366000E-06 


**** 04/15/22 11:24:06 ****** PSpice 17.2.0 (March 2016) ****** ID# 0 ********

 ** Profile: "SCHEMATIC1-1"  [ D:\pspice 10609\vdc r d q-PSpiceFiles\SCHEMATIC1\1.sim ] 


 ****     BJT MODEL PARAMETERS


******************************************************************************




               Q2SC1815        
               NPN             
       LEVEL    1            
          IS  639.500000E-18 
          BF  149.9          
          NF    1            
         VAF  172.5          
         IKF     .8587       
         ISE  750.100000E-18 
          NE    1.47         
          BR    6.575        
          NR    1            
         VAR  100            
         IKR     .4534       
         ISC    4.653000E-15 
          NC    1.185        
          NK     .5413       
         ISS    0            
          RE    0            
          RC     .7972       
         CJE    5.000000E-12 
         VJE     .75         
         MJE     .3333       
         CJC    4.858000E-12 
         VJC     .75         
         MJC     .3333       
        XCJC    1            
         CJS    0            
         VJS     .75         
          TF  314.300000E-12 
         VTF   10            
         ITF   13.01         
          TR   10.000000E-09 
         XTB    1.5          
          KF    0            
          AF    1            
          CN    2.42         
           D     .87         


**** 04/15/22 11:24:06 ****** PSpice 17.2.0 (March 2016) ****** ID# 0 ********

 ** Profile: "SCHEMATIC1-1"  [ D:\pspice 10609\vdc r d q-PSpiceFiles\SCHEMATIC1\1.sim ] 


 ****     INITIAL TRANSIENT SOLUTION       TEMPERATURE =   27.000 DEG C


******************************************************************************



 NODE   VOLTAGE     NODE   VOLTAGE     NODE   VOLTAGE     NODE   VOLTAGE


(N00137)   15.0000 (N00144)   14.2930 (N00182)    8.1440 (N00186)    7.3668 




    VOLTAGE SOURCE CURRENTS
    NAME         CURRENT

    V_V1        -1.347E-02

    TOTAL POWER DISSIPATION   2.02E-01  WATTS



          JOB CONCLUDED

**** 04/15/22 11:24:06 ****** PSpice 17.2.0 (March 2016) ****** ID# 0 ********

 ** Profile: "SCHEMATIC1-1"  [ D:\pspice 10609\vdc r d q-PSpiceFiles\SCHEMATIC1\1.sim ] 


 ****     JOB STATISTICS SUMMARY


******************************************************************************



  Total job time (using Solver 1)   =         .05
