
**** 06/21/22 17:18:52 ****** PSpice 17.2.0 (March 2016) ****** ID# 0 ********

 ** Profile: "SCHEMATIC1-3"  [ D:\pspice 10609 junja\comparator 3-PSpiceFiles\SCHEMATIC1\3.sim ] 


 ****     CIRCUIT DESCRIPTION


******************************************************************************




** Creating circuit file "3.cir" 
** WARNING: THIS AUTOMATICALLY GENERATED FILE MAY BE OVERWRITTEN BY SUBSEQUENT SIMULATIONS

*Libraries: 
* Profile Libraries :
* Local Libraries :
* From [PSPICE NETLIST] section of C:\SPB_Data\cdssetup\OrCAD_PSpice\17.2.0\PSpice.ini file:
.lib "nom.lib" 

*Analysis directives: 
.TRAN  0 0.3 0 
.OPTIONS ADVCONV
.PROBE64 V(alias(*)) I(alias(*)) W(alias(*)) D(alias(*)) NOISE(alias(*)) 
.INC "..\SCHEMATIC1.net" 



**** INCLUDING SCHEMATIC1.net ****
* source COMPARATOR 3
V_V3         N01218 0  AC 1
+SIN 0 10V 10Hz 0 0 0
V_V1         N01078 0 15V
R_R2         0 N01208  1k TC=0,0 
V_V2         0 N01234 15V
X_U1A         N01218 N01178 N01078 N01234 N01208 LM324
V_V4         N01178 0 7V

**** RESUMING 3.cir ****
.END

**** 06/21/22 17:18:52 ****** PSpice 17.2.0 (March 2016) ****** ID# 0 ********

 ** Profile: "SCHEMATIC1-3"  [ D:\pspice 10609 junja\comparator 3-PSpiceFiles\SCHEMATIC1\3.sim ] 


 ****     Diode MODEL PARAMETERS


******************************************************************************




               X_U1A.dx        X_U1A.dy        
          IS  800.000000E-18  800.000000E-18 
          RS    1               1.000000E-03 
         CJO                   10.000000E-12 


**** 06/21/22 17:18:52 ****** PSpice 17.2.0 (March 2016) ****** ID# 0 ********

 ** Profile: "SCHEMATIC1-3"  [ D:\pspice 10609 junja\comparator 3-PSpiceFiles\SCHEMATIC1\3.sim ] 


 ****     BJT MODEL PARAMETERS


******************************************************************************




               X_U1A.qx        
               PNP             
       LEVEL    1            
          IS  800.000000E-18 
          BF  166.7          
          NF    1            
          BR    1            
          NR    1            
         ISS    0            
          RE    0            
          RC    0            
         CJE    0            
         VJE     .75         
         CJC    0            
         VJC     .75         
         MJC     .33         
        XCJC    1            
         CJS    0            
         VJS     .75         
          KF    0            
          AF    1            
          CN    2.2          
           D     .52         


**** 06/21/22 17:18:52 ****** PSpice 17.2.0 (March 2016) ****** ID# 0 ********

 ** Profile: "SCHEMATIC1-3"  [ D:\pspice 10609 junja\comparator 3-PSpiceFiles\SCHEMATIC1\3.sim ] 


 ****     Current Controlled Switch MODEL PARAMETERS


******************************************************************************




               X_U1A.sw2       X_U1A.sw1       X_U1A.sw3       X_U1A.sw4       
         RON    1               1               1               1            
        ROFF   10.000000E+06   10.000000E+06   10.000000E+06   10.000000E+06 
         ION    0              -1.000000E-06   -1.000000E-06    0            
        IOFF   -1.000000E-06    0               0              -1.000000E-06 


**** 06/21/22 17:18:52 ****** PSpice 17.2.0 (March 2016) ****** ID# 0 ********

 ** Profile: "SCHEMATIC1-3"  [ D:\pspice 10609 junja\comparator 3-PSpiceFiles\SCHEMATIC1\3.sim ] 


 ****     INITIAL TRANSIENT SOLUTION       TEMPERATURE =   27.000 DEG C


******************************************************************************



 NODE   VOLTAGE     NODE   VOLTAGE     NODE   VOLTAGE     NODE   VOLTAGE


(N01078)   15.0000 (N01178)    7.0000 (N01208)  -14.9820 (N01218)    0.0000     

(N01234)  -15.0000 (X_U1A.6)    1.4990                   (X_U1A.7)  -17.0130    

(X_U1A.8)  -17.0130                   (X_U1A.9)    0.0000                       

(X_U1A.a)     .0406                   (X_U1A.b)  -14.9590                       

(X_U1A.10)     .6395                  (X_U1A.11)  -15.0000                      

(X_U1A.12)  -14.9210                  (X_U1A.13)     .6395                      

(X_U1A.14)     .6117                  (X_U1A.53)   13.5000                      

(X_U1A.54)  -14.1780                  (X_U1A.90)  -40.6110                      

(X_U1A.91)   40.0000                  (X_U1A.92)  -40.0000                      

(X_U1A.99)    0.0000                  




    VOLTAGE SOURCE CURRENTS
    NAME         CURRENT

    V_V3         8.968E-08
    V_V1        -3.320E-03
    V_V2        -1.830E-02
    V_V4        -2.204E-11
    X_U1A.vb     1.499E-05
    X_U1A.vc     2.848E-11
    X_U1A.ve    -2.563E-02
    X_U1A.vlim  -4.061E-02
    X_U1A.vlp   -8.061E-11
    X_U1A.vln    1.459E-05

    TOTAL POWER DISSIPATION   3.45E-01  WATTS



          JOB CONCLUDED

**** 06/21/22 17:18:52 ****** PSpice 17.2.0 (March 2016) ****** ID# 0 ********

 ** Profile: "SCHEMATIC1-3"  [ D:\pspice 10609 junja\comparator 3-PSpiceFiles\SCHEMATIC1\3.sim ] 


 ****     JOB STATISTICS SUMMARY


******************************************************************************



  Total job time (using Solver 1)   =         .06
